Index	Frequency	A_1	A_2	DeltaF	DF_Lower	DF_Upper	Phi_1	Phi_1_Lower	Phi_1_Upper	Phi_2	Phi_2_Lower	Phi_2_Upper	Decay_1	Decay_2	BeatFreq	PhaseShift	ZeroOffset
0	2518.7040	3.4139e-01	1.9054e-02	5.5691e-02	5.5690e-02	5.5692e-02	2.9696e-07	2.9734e-07	2.9657e-07	2.9952e-07	3.0053e-07	2.9851e-07	4.2558e+02	4.2194e+02	0.0557	80.51	3.8518e-06
1	2518.7120	3.2861e-01	1.8314e-02	5.5689e-02	5.5688e-02	5.5690e-02	2.9902e-07	2.9938e-07	2.9865e-07	2.9861e-07	2.9966e-07	2.9756e-07	4.2265e+02	4.2322e+02	0.0557	80.01	7.9384e-07
2	2518.6620	3.9894e-01	2.2204e-02	5.5691e-02	5.5690e-02	5.5692e-02	2.9782e-07	2.9822e-07	2.9742e-07	2.9517e-07	2.9609e-07	2.9425e-07	4.2435e+02	4.2817e+02	0.0557	95.09	5.9502e-05
3	2518.7340	3.8163e-01	2.1267e-02	5.5696e-02	5.5694e-02	5.5697e-02	2.9855e-07	2.9894e-07	2.9816e-07	2.9900e-07	3.0002e-07	2.9797e-07	4.2330e+02	4.2267e+02	0.0557	460.26	-9.5665e-06
4	5768.0010	3.7014e-03	1.1743e-04	9.7310e-03	-inf	inf	2.9027e-07	inf	-inf	3.8268e-07	inf	-inf	1.9012e+02	1.4421e+02	0.0097	420.24	8.8210e-08
5	5768.0800	-5.5419e-03	-1.7931e-04	3.1262e-02	3.1070e-02	3.1454e-02	2.8931e-07	2.8986e-07	2.8875e-07	2.2804e-07	2.9566e-07	1.6043e-07	1.9075e+02	2.4200e+02	0.0313	390.14	1.5261e-05
6	5768.1440	-7.5228e-03	-2.3222e-04	3.1006e-02	3.0771e-02	3.1241e-02	2.9145e-07	2.9204e-07	2.9085e-07	3.5068e-07	4.3246e-07	2.6892e-07	1.8935e+02	1.5736e+02	0.0310	373.76	4.5733e-03
7	10052.1500	-5.7888e-02	-1.7392e-04	2.9710e-03	2.9157e-03	3.0263e-03	3.4305e-07	3.7976e-07	3.0634e-07	2.9269e-07	3.0934e-07	2.7604e-07	9.2307e+01	1.0819e+02	0.0030	-96.34	-8.6805e-03
8	15238.5730	2.2106e-01	1.3573e-02	6.1285e-02	6.1276e-02	6.1293e-02	3.2449e-07	3.2500e-07	3.2397e-07	3.0930e-07	3.1053e-07	3.0807e-07	6.4374e+01	6.7535e+01	0.0613	61.07	3.3240e-03
9	15237.2500	2.4634e-01	1.5154e-02	6.1309e-02	6.1300e-02	6.1319e-02	3.3155e-07	3.3221e-07	3.3088e-07	3.1166e-07	3.1308e-07	3.1025e-07	6.3009e+01	6.7028e+01	0.0613	72.41	-6.6817e-03
10	15237.4550	2.3698e-01	1.4543e-02	6.1325e-02	6.1315e-02	6.1335e-02	3.3299e-07	3.3365e-07	3.3232e-07	3.1043e-07	3.1189e-07	3.0897e-07	6.2735e+01	6.7294e+01	0.0613	70.96	-7.3223e-03
11	15237.5300	2.3060e-01	1.4148e-02	6.1301e-02	6.1291e-02	6.1311e-02	3.3240e-07	3.3307e-07	3.3174e-07	3.1604e-07	3.1755e-07	3.1453e-07	6.2845e+01	6.6098e+01	0.0613	69.12	-6.6414e-03
12	15237.7200	7.1718e-01	4.3720e-02	6.1252e-02	6.1216e-02	6.1287e-02	3.0762e-07	3.1309e-07	3.0215e-07	3.3010e-07	3.3356e-07	3.2664e-07	6.7907e+01	6.3283e+01	0.0613	147.63	-2.2912e-02
13	15322.0160	5.6712e-02	2.7367e-02	4.5818e-01	4.5725e-01	4.5912e-01	2.8017e-07	2.8222e-07	2.7812e-07	4.8688e-07	6.0978e-07	3.6399e-07	7.4150e+01	4.2669e+01	0.4582	93.52	6.6183e-04
14	15308.5200	-2.1447e-02	-2.2162e-03	1.0015e-01	9.8097e-02	1.0221e-01	2.8345e-07	2.8623e-07	2.8067e-07	5.3181e-07	8.0928e-07	2.5435e-07	7.3356e+01	3.9099e+01	0.1002	36.76	5.6302e-03
15	15309.2650	7.1513e-02	3.4219e-02	4.6411e-01	4.6164e-01	4.6658e-01	2.9137e-07	2.9586e-07	2.8689e-07	8.0329e-07	1.1274e-06	4.7922e-07	7.1359e+01	2.5883e+01	0.4641	451.09	-1.6250e-02
16	15308.6050	8.4722e-02	3.8481e-02	4.5848e-01	4.5843e-01	4.5852e-01	2.8721e-07	2.8768e-07	2.8674e-07	2.8277e-07	2.8880e-07	2.7674e-07	7.2396e+01	7.3532e+01	0.4585	403.47	1.0688e-02
17	21484.5930	2.1558e-02	7.1044e-04	3.2929e-02	-inf	inf	3.4464e-07	inf	-inf	3.0441e-07	inf	-inf	4.2989e+01	4.8670e+01	0.0329	268.42	2.0076e-07
18	21380.7500	2.1089e-02	6.9224e-04	3.2919e-02	-inf	inf	3.4184e-07	inf	-inf	3.0162e-07	inf	-inf	4.3552e+01	4.9360e+01	0.0329	217.77	5.3990e-07
19	21381.1120	-2.2024e-02	-7.2220e-04	3.2772e-02	3.2597e-02	3.2948e-02	3.4407e-07	3.4496e-07	3.4318e-07	3.2058e-07	3.3718e-07	3.0398e-07	4.3269e+01	4.6440e+01	0.0328	-140.80	1.9561e-06
20	21381.1220	2.3769e-02	7.8589e-04	3.3308e-02	-inf	inf	3.4269e-07	inf	-inf	3.2316e-07	inf	-inf	4.3442e+01	4.6069e+01	0.0333	204.83	-3.7205e-07
21	21381.1400	3.8259e-02	1.2620e-03	3.3063e-02	3.2914e-02	3.3212e-02	3.4211e-07	3.4341e-07	3.4080e-07	3.0969e-07	3.2344e-07	2.9593e-07	4.3517e+01	4.8073e+01	0.0331	213.36	3.5358e-06
22	23102.8320	6.8075e-02	5.4852e-02	8.1116e-01	7.9694e-01	8.2537e-01	2.7874e-07	2.8276e-07	2.7472e-07	1.9769e-06	3.1857e-06	7.6818e-07	4.9430e+01	6.9694e+00	0.8112	305.67	-2.1662e-05
23	22999.1740	2.7040e-02	5.6250e-03	2.0490e-01	2.0163e-01	2.0818e-01	2.8913e-07	2.9430e-07	2.8396e-07	3.6496e-07	6.5608e-07	7.3847e-08	4.7868e+01	3.7923e+01	0.2049	57.51	1.7090e-02
24	22999.5780	4.2613e-02	2.5933e-02	6.3821e-01	6.2062e-01	6.5581e-01	2.8526e-07	2.8989e-07	2.8062e-07	1.9607e-06	3.4322e-06	4.8916e-07	4.8517e+01	7.0588e+00	0.6382	-21.20	1.3032e-02
25	22999.3360	2.7827e-02	1.2028e-02	4.3761e-01	4.3736e-01	4.3786e-01	2.7880e-07	2.7937e-07	2.7822e-07	2.6081e-07	2.8296e-07	2.3867e-07	4.9642e+01	5.3065e+01	0.4376	-120.18	6.8215e-03
26	22999.2680	2.7754e-02	1.2218e-02	4.3743e-01	4.3720e-01	4.3766e-01	2.7835e-07	2.7889e-07	2.7781e-07	2.6106e-07	2.8123e-07	2.4090e-07	4.9721e+01	5.3014e+01	0.4374	199.59	2.9971e-03
27	28420.9650	1.8130e-01	1.4994e-02	8.2837e-02	8.2781e-02	8.2894e-02	3.6792e-07	3.6926e-07	3.6659e-07	3.5057e-07	3.5487e-07	3.4626e-07	3.0441e+01	3.1948e+01	0.0828	85.27	3.7731e-03
28	28417.7520	1.6326e-01	1.3406e-02	8.2842e-02	8.2760e-02	8.2924e-02	3.7182e-07	3.7343e-07	3.7021e-07	3.5406e-07	3.6023e-07	3.4789e-07	3.0125e+01	3.1636e+01	0.0828	98.98	-4.9488e-03
29	28418.1960	1.7284e-01	1.4238e-02	8.2836e-02	8.2775e-02	8.2897e-02	3.7162e-07	3.7309e-07	3.7016e-07	3.5688e-07	3.6161e-07	3.5214e-07	3.0140e+01	3.1386e+01	0.0828	81.95	-5.2415e-03
30	28418.2520	2.5961e-01	2.1502e-02	8.2878e-02	8.2838e-02	8.2918e-02	3.7577e-07	3.7790e-07	3.7364e-07	3.5553e-07	3.5913e-07	3.5193e-07	2.9808e+01	3.1505e+01	0.0829	79.56	5.1505e-03
31	28418.1800	2.5264e-01	2.0802e-02	8.2874e-02	8.2837e-02	8.2912e-02	3.6853e-07	3.7023e-07	3.6682e-07	3.5315e-07	3.5642e-07	3.4989e-07	3.0394e+01	3.1717e+01	0.0829	86.49	-2.9635e-06
32	2518.9300	-4.0859e-01	-2.2767e-02	5.5681e-02	5.5675e-02	5.5687e-02	2.9707e-07	3.1028e-07	2.8386e-07	2.9797e-07	3.1236e-07	2.8358e-07	4.2538e+02	4.2410e+02	0.0557	331.50	-4.3770e-05
33	2518.9000	3.9845e-01	2.2227e-02	5.5668e-02	5.5663e-02	5.5673e-02	2.9928e-07	3.1013e-07	2.8843e-07	2.9311e-07	3.0466e-07	2.8156e-07	4.2225e+02	4.3113e+02	0.0557	324.50	7.1928e-03
34	2518.8700	3.1265e-01	1.7432e-02	5.5664e-02	5.5662e-02	5.5666e-02	2.9690e-07	2.9757e-07	2.9623e-07	3.0081e-07	3.0245e-07	2.9916e-07	4.2563e+02	4.2010e+02	0.0557	-29.26	1.8080e-06
35	2519.3560	3.9139e-01	2.1770e-02	5.5665e-02	5.5663e-02	5.5666e-02	2.9629e-07	2.9790e-07	2.9468e-07	2.9561e-07	2.9782e-07	2.9340e-07	4.2643e+02	4.2740e+02	0.0557	325.70	-6.8043e-06
36	5768.2360	4.9064e-03	2.7363e-04	5.8070e-02	5.6179e-02	5.9962e-02	2.8958e-07	2.8998e-07	2.8919e-07	1.9652e-06	2.6896e-06	1.2410e-06	1.9056e+02	2.8080e+01	0.0581	57.52	-1.0641e-06
37	5768.1440	8.4834e-03	2.3868e-03	3.0998e-01	3.0796e-01	3.1200e-01	2.9081e-07	2.9123e-07	2.9039e-07	1.6587e-06	2.3524e-06	9.6507e-07	1.8976e+02	3.3270e+01	0.3100	-14.07	5.4585e-06
38	10026.4700	1.8769e-01	6.4308e-04	2.9441e-03	2.9234e-03	2.9647e-03	3.4035e-07	3.5078e-07	3.2993e-07	3.0282e-07	3.0862e-07	2.9703e-07	9.3277e+01	1.0484e+02	0.0029	-144.79	1.2083e-06
39	10020.6500	2.1576e-01	4.6761e-04	2.8886e-03	2.8822e-03	2.8950e-03	3.2516e-07	3.2703e-07	3.2329e-07	2.9940e-07	3.0154e-07	2.9726e-07	9.7692e+01	1.0610e+02	0.0029	183.93	1.2469e-06
40	10020.5100	-2.3321e-01	-5.0672e-04	2.8901e-03	2.8834e-03	2.8969e-03	3.2900e-07	3.3144e-07	3.2657e-07	3.0296e-07	3.0522e-07	3.0070e-07	9.6552e+01	1.0485e+02	0.0029	-176.19	1.2917e-03
41	10020.4300	2.4765e-01	5.3421e-04	2.8875e-03	-inf	inf	3.2754e-07	inf	-inf	3.0177e-07	inf	-inf	9.6984e+01	1.0527e+02	0.0029	183.41	1.5089e-08
42	10020.3400	2.5794e-01	5.5693e-04	2.8882e-03	2.8821e-03	2.8944e-03	3.0279e-07	3.0493e-07	3.0065e-07	3.2785e-07	3.2994e-07	3.2576e-07	1.0491e+02	9.6893e+01	0.0029	-176.61	2.3326e-06
43	10020.4300	2.5405e-01	6.8412e-04	2.8796e-03	-inf	inf	3.2741e-07	inf	-inf	3.0015e-07	inf	-inf	9.7022e+01	1.0583e+02	0.0029	188.85	7.9363e-08
44	15308.5550	7.5263e-02	3.4241e-02	4.5855e-01	4.5850e-01	4.5861e-01	2.8627e-07	2.8678e-07	2.8576e-07	2.8728e-07	2.9450e-07	2.8006e-07	7.2633e+01	7.2379e+01	0.4586	386.94	9.4395e-03
45	22999.2800	3.2698e-02	1.4041e-02	4.3705e-01	4.3675e-01	4.3735e-01	2.7830e-07	2.7893e-07	2.7767e-07	2.7394e-07	3.0012e-07	2.4775e-07	4.9731e+01	5.0522e+01	0.4371	206.94	4.6138e-03
46	22999.1240	3.4022e-02	1.4423e-02	4.3676e-01	4.3647e-01	4.3706e-01	2.7639e-07	2.7692e-07	2.7586e-07	2.8386e-07	3.0937e-07	2.5836e-07	5.0074e+01	4.8757e+01	0.4368	178.75	-2.9604e-07
